
**** 12/12/22 14:43:53 ******* PSpice 17.4.0 (Nov 2018) ******* ID# 0 ********

 ** Profile: "SCHEMATIC1-test2"  [ C:\Users\a0488390\Documents\bitbucket_repos\lmg3522r030\LMG3522R030_pspice\synchronous buck_new-PS


 ****     CIRCUIT DESCRIPTION


******************************************************************************




** Creating circuit file "test2.cir" 
** WARNING: THIS AUTOMATICALLY GENERATED FILE MAY BE OVERWRITTEN BY SUBSEQUENT SIMULATIONS

*Libraries: 
* Profile Libraries :
* Local Libraries :
.LIB "../../../iso7710.lib" 
.LIB "../../../lmg3522r030.lib" 
* From [PSPICE NETLIST] section of C:\cds_spb_home\cdssetup\OrCAD_PSpiceTIPSpice_Install\17.4.0\PSpice.ini file:
.lib "nom_pspti.lib" 
.lib "nom.lib" 

*Analysis directives: 
.TRAN  0 1500us 1400us 
.OPTIONS ADVCONV
.OPTIONS FILEMODELSEARCH
.PROBE64 N([N00508])
.PROBE64 N([0])
.INC "..\SCHEMATIC1.net" 



**** INCLUDING SCHEMATIC1.net ****
* source SYNCHRONOUS BUCK_NEW
L_L2         N00508 N104989  4.7uH  
R_Rload6         N00508 N105255  1000 TC=0,0 
R_Rload7         N00508 N105267  200k TC=0,0 
R_Rload8         N00508 N105279  200k TC=0,0 
C_C10         N00508 N104996  10u  TC=0,0 
V_V4         N00382 0 DC 0 AC 0
+PULSE 0 400 350u 2000u 1u 10000 10000
V_V5         N41977 N00508 DC 0 AC 0
+PULSE 0 14 0 2u 1u 10000 20000
V_V6         N55997 0 DC 0 AC 0
+PULSE 0 12 0 2u 1u 10000 20000
V_V7         N77423 0 DC 0 AC 0
+PULSE 0 5 0u 1n 1n 4.98u 10u
L_L3         0 N56082  4.7uH  
C_C12         0 N56075  10u  TC=0,0 
R_Rload11         0 N56822  22 TC=0,0 
R_Rload13         0 N106523  200k TC=0,0 
R_Rload12         0 N106519  1000 TC=0,0 
R_Rload14         0 N106527  200k TC=0,0 
X_U3         N70217 N64230 0 N78009 N64141 N00508 ISO7710 
L_L4         N00508 N56822  70uH  
C_C14         0 N56822  100u  TC=0,0 
V_V8         N70217 0 DC 0 AC 0
+PULSE 0 5 10n 2u 1u 10000 20000
X_U4         N70217 N77423 0 N70217 N77530 0 ISO7710 
R_Rload17         N83421 N00382  1 TC=0,0 
V_V9         N64230 0 DC 0 AC 0
+PULSE 0 5 5u 1n 1n 4.98u 10u
C_C15         N106107 0  10u  TC=0,0 
R_Rload18         0 N56249  20k TC=0,0 
R_Rload19         N00508 N104983  20k TC=0,0 
X_U5         N55997 N106107 N77530 N56249 N56082 N56075 N106519 N106523 N106527
+  0 0 N00508 LMG3522R030 PARAMS:  TEMP_CELSIUS=160
X_U6         N41977 N78009 N64141 N104983 N104989 N104996 N105255 N105267
+  N105279 N00508 N00508 N83421 LMG3522R030 PARAMS:  TEMP_CELSIUS=160

**** RESUMING test2.cir ****
.END

WARNING(ORPSIM-15256): <X_U5.X_UTOP_U_GAN_FET.T> not a subcircuit param

WARNING(ORPSIM-15256): <X_U6.X_UTOP_U_GAN_FET.T> not a subcircuit param

**** 12/12/22 14:43:53 ******* PSpice 17.4.0 (Nov 2018) ******* ID# 0 ********

 ** Profile: "SCHEMATIC1-test2"  [ C:\Users\a0488390\Documents\bitbucket_repos\lmg3522r030\LMG3522R030_pspice\synchronous buck_new-PS


 ****     Diode MODEL PARAMETERS


******************************************************************************




               X_U5.X_UTOP_U8.dd1 
          IS    1.000000E-15 
           N     .1          
          RS     .05         
          TT   10.000000E-12 


               X_U5.X_UTOP_U7.dd1 
          IS    1.000000E-15 
           N     .1          
          RS     .05         
          TT   10.000000E-12 


               X_U5.X_UTOP_U_Supplies2_UBB_U14.dd1 
          IS    1.000000E-15 
           N     .1          
          RS     .05         
          TT   10.000000E-12 


               X_U5.X_UTOP_U_Driver_U7.dd1 
          IS    1.000000E-15 
           N     .1          
          RS     .05         
          TT   10.000000E-12 


               X_U5.X_UTOP_U_Driver_U8.dd1 
          IS    1.000000E-15 
           N     .1          
          RS     .05         
          TT   10.000000E-12 


               X_U5.X_UTOP_U_GAN_FET.DIDEAL 
          IS    1.000000E-12 
           N     .145        
          RS  100.000000E-06 
         CJO  100.000000E-15 


               X_U5.X_UTOP_U_GAN_FET.Dbt 
          IS   25.000000E-12 
           N   11.27         
          BV  600            
          RS    1.850000E-03 
          TT   10.000000E-12 
         CJO   99.000000E-15 
          VJ     .8          
           M     .35         


               X_U6.X_UTOP_U8.dd1 
          IS    1.000000E-15 
           N     .1          
          RS     .05         
          TT   10.000000E-12 


               X_U6.X_UTOP_U7.dd1 
          IS    1.000000E-15 
           N     .1          
          RS     .05         
          TT   10.000000E-12 


               X_U6.X_UTOP_U_Supplies2_UBB_U14.dd1 
          IS    1.000000E-15 
           N     .1          
          RS     .05         
          TT   10.000000E-12 


               X_U6.X_UTOP_U_Driver_U7.dd1 
          IS    1.000000E-15 
           N     .1          
          RS     .05         
          TT   10.000000E-12 


               X_U6.X_UTOP_U_Driver_U8.dd1 
          IS    1.000000E-15 
           N     .1          
          RS     .05         
          TT   10.000000E-12 


               X_U6.X_UTOP_U_GAN_FET.DIDEAL 
          IS    1.000000E-12 
           N     .145        
          RS  100.000000E-06 
         CJO  100.000000E-15 


               X_U6.X_UTOP_U_GAN_FET.Dbt 
          IS   25.000000E-12 
           N   11.27         
          BV  600            
          RS    1.850000E-03 
          TT   10.000000E-12 
         CJO   99.000000E-15 
          VJ     .8          
           M     .35         


**** 12/12/22 14:43:53 ******* PSpice 17.4.0 (Nov 2018) ******* ID# 0 ********

 ** Profile: "SCHEMATIC1-test2"  [ C:\Users\a0488390\Documents\bitbucket_repos\lmg3522r030\LMG3522R030_pspice\synchronous buck_new-PS


 ****     MOSFET MODEL PARAMETERS


******************************************************************************




               X_U5.X_UTOP_U_GAN_FET._M1_modX 
               NMOS            
       LEVEL    1            
           L  100.000000E-06 
           W  100.000000E-06 
         VTO    1.5          
          KP   10            
       GAMMA    0            
         PHI     .6          
      LAMBDA    0            
          IS   10.000000E-15 
          JS    0            
          PB     .8          
        PBSW     .8          
          CJ    0            
        CJSW    0            
        CGSO    0            
        CGDO    0            
        CGBO    0            
         TOX  100.000000E-09 
          XJ    0            
          UO  400            
       UCRIT   10.000000E+03 
      DIOMOD    1            
         VFB    0            
        LETA    0            
        WETA    0            
          U0    0            
        TEMP    0            
         VDD    5            
       XPART    0            


               X_U6.X_UTOP_U_GAN_FET._M1_modX 
               NMOS            
       LEVEL    1            
           L  100.000000E-06 
           W  100.000000E-06 
         VTO    1.5          
          KP   10            
       GAMMA    0            
         PHI     .6          
      LAMBDA    0            
          IS   10.000000E-15 
          JS    0            
          PB     .8          
        PBSW     .8          
          CJ    0            
        CJSW    0            
        CGSO    0            
        CGDO    0            
        CGBO    0            
         TOX  100.000000E-09 
          XJ    0            
          UO  400            
       UCRIT   10.000000E+03 
      DIOMOD    1            
         VFB    0            
        LETA    0            
        WETA    0            
          U0    0            
        TEMP    0            
         VDD    5            
       XPART    0            


**** 12/12/22 14:43:53 ******* PSpice 17.4.0 (Nov 2018) ******* ID# 0 ********

 ** Profile: "SCHEMATIC1-test2"  [ C:\Users\a0488390\Documents\bitbucket_repos\lmg3522r030\LMG3522R030_pspice\synchronous buck_new-PS


 ****     Voltage Controlled Switch MODEL PARAMETERS


******************************************************************************




               X_U5.X_UTOP_U_Ilim1_S20._UTOP_U_Ilim1_S20 
         RON    7.000000E-03 
        ROFF    1.000000E+06 
         VON    1            
        VOFF    0            


               X_U5.X_UTOP_U_Ilim1_U62.S1 
         RON    1            
        ROFF    1.000000E+09 
         VON     .75         
        VOFF     .25         


               X_U5.X_UTOP_U_Ilim1_S18._UTOP_U_Ilim1_S18 
         RON    7.000000E-03 
        ROFF    1.000000E+06 
         VON    1            
        VOFF    0            


               X_U5.X_UTOP_U_Ilim1_U63.S1 
         RON    1            
        ROFF    1.000000E+09 
         VON     .75         
        VOFF     .25         


               X_U5.X_UTOP_U_Ilim1_S17._UTOP_U_Ilim1_S17 
         RON    7.000000E-03 
        ROFF    1.000000E+06 
         VON    1            
        VOFF    0            


               X_U5.X_UTOP_U_Ilim1_S19._UTOP_U_Ilim1_S19 
         RON    7.000000E-03 
        ROFF    1.000000E+06 
         VON    1            
        VOFF    0            


               X_U5.X_UTOP_U_Ilim1_U119.S1 
         RON    1            
        ROFF    1.000000E+09 
         VON     .75         
        VOFF     .25         


               X_U5.X_UTOP_U_Ilim1_U117.S1 
         RON    1            
        ROFF    1.000000E+09 
         VON     .75         
        VOFF     .25         


               X_U5.X_UTOP_U_Supplies2_UBB_S17._UTOP_U_Supplies2_UBB_S17 
         RON    7.000000E-03 
        ROFF    1.000000E+06 
         VON    1            
        VOFF    0            


               X_U5.X_UTOP_U_Driver_S19._UTOP_U_Driver_S19 
         RON    1.000000E-03 
        ROFF    1.000000E+09 
         VON     .8          
        VOFF     .2          


               X_U5.X_UTOP_U_Driver_S20._UTOP_U_Driver_S20 
         RON    7.000000E-03 
        ROFF    1.000000E+09 
         VON     .9          
        VOFF     .1          


               X_U6.X_UTOP_U_Ilim1_S20._UTOP_U_Ilim1_S20 
         RON    7.000000E-03 
        ROFF    1.000000E+06 
         VON    1            
        VOFF    0            


               X_U6.X_UTOP_U_Ilim1_U62.S1 
         RON    1            
        ROFF    1.000000E+09 
         VON     .75         
        VOFF     .25         


               X_U6.X_UTOP_U_Ilim1_S18._UTOP_U_Ilim1_S18 
         RON    7.000000E-03 
        ROFF    1.000000E+06 
         VON    1            
        VOFF    0            


               X_U6.X_UTOP_U_Ilim1_U63.S1 
         RON    1            
        ROFF    1.000000E+09 
         VON     .75         
        VOFF     .25         


               X_U6.X_UTOP_U_Ilim1_S17._UTOP_U_Ilim1_S17 
         RON    7.000000E-03 
        ROFF    1.000000E+06 
         VON    1            
        VOFF    0            


               X_U6.X_UTOP_U_Ilim1_S19._UTOP_U_Ilim1_S19 
         RON    7.000000E-03 
        ROFF    1.000000E+06 
         VON    1            
        VOFF    0            


               X_U6.X_UTOP_U_Ilim1_U119.S1 
         RON    1            
        ROFF    1.000000E+09 
         VON     .75         
        VOFF     .25         


               X_U6.X_UTOP_U_Ilim1_U117.S1 
         RON    1            
        ROFF    1.000000E+09 
         VON     .75         
        VOFF     .25         


               X_U6.X_UTOP_U_Supplies2_UBB_S17._UTOP_U_Supplies2_UBB_S17 
         RON    7.000000E-03 
        ROFF    1.000000E+06 
         VON    1            
        VOFF    0            


               X_U6.X_UTOP_U_Driver_S19._UTOP_U_Driver_S19 
         RON    1.000000E-03 
        ROFF    1.000000E+09 
         VON     .8          
        VOFF     .2          


               X_U6.X_UTOP_U_Driver_S20._UTOP_U_Driver_S20 
         RON    7.000000E-03 
        ROFF    1.000000E+09 
         VON     .9          
        VOFF     .1          


               X_U3.XU5.X_S2._S2 
         RON     .01         
        ROFF    5.000000E+06 
         VON    1            
        VOFF     .8          


               X_U3.XU5.X_S1._S1 
         RON     .01         
        ROFF    5.000000E+06 
         VON    1            
        VOFF    0            


               X_U3.XU5.X_S3._S3 
         RON     .01         
        ROFF    5.000000E+06 
         VON    1            
        VOFF    0            


               X_U4.XU5.X_S2._S2 
         RON     .01         
        ROFF    5.000000E+06 
         VON    1            
        VOFF     .8          


               X_U4.XU5.X_S1._S1 
         RON     .01         
        ROFF    5.000000E+06 
         VON    1            
        VOFF    0            


               X_U4.XU5.X_S3._S3 
         RON     .01         
        ROFF    5.000000E+06 
         VON    1            
        VOFF    0            


               X_U5.X_UTOP_U_GAN_FET.X_S17._S17 
         RON    7.000000E-03 
        ROFF    1.000000E+06 
         VON    1            
        VOFF    0            


               X_U6.X_UTOP_U_GAN_FET.X_S17._S17 
         RON    7.000000E-03 
        ROFF    1.000000E+06 
         VON    1            
        VOFF    0            


WARNING(ORPSIM-15452): Pulse Period < (Rise Time + Fall Time + Pulse Width) for X_U5.V_UTOP_U_PWM_Temp_VRAMP1.

WARNING(ORPSIM-15452): Pulse Period < (Rise Time + Fall Time + Pulse Width) for X_U6.V_UTOP_U_PWM_Temp_VRAMP1.

WARNING(ORPSIM-15452): Pulse Period < (Rise Time + Fall Time + Pulse Width) for X_U5.V_UTOP_U_PWM_Temp_VRAMP1.

WARNING(ORPSIM-15452): Pulse Period < (Rise Time + Fall Time + Pulse Width) for X_U6.V_UTOP_U_PWM_Temp_VRAMP1.

**** 12/12/22 14:43:53 ******* PSpice 17.4.0 (Nov 2018) ******* ID# 0 ********

 ** Profile: "SCHEMATIC1-test2"  [ C:\Users\a0488390\Documents\bitbucket_repos\lmg3522r030\LMG3522R030_pspice\synchronous buck_new-PS


 ****     INITIAL TRANSIENT SOLUTION       TEMPERATURE =   27.000 DEG C


******************************************************************************



 NODE   VOLTAGE     NODE   VOLTAGE     NODE   VOLTAGE     NODE   VOLTAGE


(N00382)    0.0000 (N00508)-17.76E-09 (N41977)-17.76E-09 (N55997)    0.0000     

(N56075)-155.6E-09 (N56082)    0.0000 (N56249)    1.2000 (N56822)-17.76E-09     

(N64141)-17.25E-09 (N64230)    0.0000 (N70217)    0.0000 (N77423)    0.0000     

(N77530)-45.04E-27 (N78009)-17.76E-09 (N83421) 85.55E-09 (X_U3.1)    0.0000     

(X_U3.2)    2.0000 (X_U3.3)    0.0000 (X_U3.4)    2.0000 (X_U3.5)    0.0000     

(X_U3.6)    0.0000 (X_U3.7)    0.0000 (X_U3.8)    0.0000 (X_U3.9)    0.0000     

(X_U4.1)    0.0000 (X_U4.2)    2.0000 (X_U4.3)    0.0000 (X_U4.4)    2.0000     

(X_U4.5)    0.0000 (X_U4.6)    0.0000 (X_U4.7)    0.0000 (X_U4.8)    0.0000     

(X_U4.9)    0.0000 (N104983)    1.2000                   (N104989)-17.76E-09    

(N104996)-173.3E-09                   (N105255)    5.0000                       

(N105267)    5.0000                   (N105279)-17.76E-09                       

(N106107)    0.0000                   (N106519)    5.0000                       

(N106523)    5.0000                   (N106527)    0.0000                       

(X_U3.10)    0.0000                   (X_U4.10)    0.0000                       

(X_U3.DEL_IN)    0.0000               (X_U4.DEL_IN)    0.0000                   

(X_U3.DEL_OUT)    0.0000              (X_U4.DEL_OUT)    0.0000                  

(X_U3.VCC1_INT)    0.0000             (X_U3.VCC2_INT)    0.0000                 

(X_U3.XU5.DRVB)  -10.0000             (X_U4.VCC1_INT)    0.0000                 

(X_U4.VCC2_INT)    0.0000             (X_U4.XU5.DRVB)  -10.0000                 

(X_U3.XU5.HIGHI)    1.0000            (X_U4.XU5.HIGHI)    1.0000                

(X_U5.N16888265)    0.0000            (X_U5.N16890507)    0.0000                

(X_U6.N16888265)    0.0000            (X_U6.N16890507)    0.0000                

(X_U5.UTOP_PGOOD)    0.0000           (X_U5.UTOP_VDDCL)    0.0000               

(X_U6.UTOP_PGOOD)    0.0000           (X_U6.UTOP_VDDCL)-17.76E-09               

(X_U3.XU1.VCC_INT)    0.0000          (X_U3.XU2.VCC_INT)    0.0000              

(X_U4.XU1.VCC_INT)    0.0000          (X_U4.XU2.VCC_INT)    0.0000              

(X_U5.UTOP_N01929)    5.0000          (X_U5.UTOP_N01993)    0.0000              

(X_U5.UTOP_N02173)    5.0000          (X_U5.UTOP_N02203)    5.0000              

(X_U5.UTOP_N02535)    1.0000          (X_U5.UTOP_N03195)    5.0000              

(X_U6.UTOP_N01929)    5.0000          (X_U6.UTOP_N01993)    0.0000              

(X_U6.UTOP_N02173)    5.0000          (X_U6.UTOP_N02203)    5.0000              

(X_U6.UTOP_N02535)    1.0000          (X_U6.UTOP_N03195)    5.0000              

(X_U5.UTOP_N339734)    5.0000         (X_U5.UTOP_N397400)    1.0000             

(X_U5.UTOP_N492602)    0.0000         (X_U5.UTOP_N496067)    0.0000             

(X_U6.UTOP_N339734)    5.0000         (X_U6.UTOP_N397400)    1.0000             

(X_U6.UTOP_N492602)-17.76E-09         (X_U6.UTOP_N496067)    0.0000             

(X_U3.XU1.N16769409)    2.0000        (X_U3.XU2.N16769409)    2.0000            

(X_U3.XU3.N16766925)    0.0000        (X_U3.XU5.N16771405)-172.5E-15            

(X_U3.XU5.N16771631)-17.25E-09        (X_U3.XU5.N16774625)-17.74E-09            

(X_U3.XU5.N16776225)-17.25E-09        (X_U3.XU5.N16776248)-17.25E-09            

(X_U3.XU5.N16777893)    0.0000        (X_U4.XU1.N16769409)    2.0000            

(X_U4.XU2.N16769409)    2.0000        (X_U4.XU3.N16766925)    0.0000            

(X_U4.XU5.N16771405)    0.0000        (X_U4.XU5.N16771631)-45.04E-27            

(X_U4.XU5.N16774625)    0.0000        (X_U4.XU5.N16776225)-45.04E-27            

(X_U4.XU5.N16776248)-45.04E-27        (X_U4.XU5.N16777893)    0.0000            

(X_U5.UTOP_GATE_INT) 104.0E-09        (X_U5.UTOP_VNEG_14V)-155.6E-09            

(X_U6.UTOP_GATE_INT) 120.9E-09        (X_U6.UTOP_VNEG_14V)-155.6E-09            

(X_U5.UTOP_DRAIN_INT)-17.76E-09       (X_U5.UTOP_IN_INTREF)-45.04E-27           

(X_U5.UTOP_I_FAULT_Z)    1.0000       (X_U5.UTOP_I_LIMIT_Z)    1.0000           

(X_U6.UTOP_DRAIN_INT) 85.55E-09       (X_U6.UTOP_IN_INTREF) 502.6E-12           

(X_U6.UTOP_I_FAULT_Z)    1.0000       (X_U6.UTOP_I_LIMIT_Z)    1.0000           

(X_U5.UTOP_GATE_DRV_T)    0.0000      (X_U5.UTOP_I_DETECT_T)-60.56E-06          

(X_U5.UTOP_LDO_5V_INT)    0.0000      (X_U5.UTOP_SOURCE_INT) 1.602E-09          

(X_U5.X_UTOP_U1.YINT1)    0.0000      (X_U5.X_UTOP_U1.YINT2)    0.0000          

(X_U5.X_UTOP_U1.YINT3)    0.0000      (X_U5.X_UTOP_U97.YINT)    1.0000          

(X_U5.X_UTOP_U99.YINT)    1.0000      (X_U6.UTOP_GATE_DRV_T)    0.0000          

(X_U6.UTOP_I_DETECT_T)-85.55E-09      (X_U6.UTOP_LDO_5V_INT)    0.0000          

(X_U6.UTOP_SOURCE_INT) 70.32E-09      (X_U6.X_UTOP_U1.YINT1)    0.0000          

(X_U6.X_UTOP_U1.YINT2)    0.0000      (X_U6.X_UTOP_U1.YINT3)    0.0000          

(X_U6.X_UTOP_U97.YINT)    1.0000      (X_U6.X_UTOP_U99.YINT)    1.0000          

(X_U5.UTOP_FAULT_Z_TOP)    1.0000     (X_U5.UTOP_U_Ilim1_ONE)    1.0000         

(X_U5.UTOP_VDD_SHIFTED)    0.0000     (X_U5.X_UTOP_U118.OUTx)    0.0000         

(X_U6.UTOP_FAULT_Z_TOP)    1.0000     (X_U6.UTOP_U_Ilim1_ONE)    1.0000         

(X_U6.UTOP_VDD_SHIFTED)    0.0000     (X_U6.X_UTOP_U118.OUTx)-17.76E-09         

(X_U5.UTOP_U_Fault1_ONE)    1.0000    (X_U6.UTOP_U_Fault1_ONE)    1.0000        

(X_U5.UTOP_IN_DLY_INTREF)    0.0000   (X_U5.X_UTOP_U_GAN_FET.d)    -.0604       

(X_U5.X_UTOP_U_GAN_FET.g) 104.0E-09   (X_U5.X_UTOP_U_GAN_FET.s) 91.16E-09       

(X_U6.UTOP_IN_DLY_INTREF)    0.0000   (X_U6.X_UTOP_U_GAN_FET.d)    -.0604       

(X_U6.X_UTOP_U_GAN_FET.g) 120.9E-09   (X_U6.X_UTOP_U_GAN_FET.s) 159.9E-09       

(X_U5.UTOP_LDMOS_GATE_TOP)    1.0000  (X_U5.UTOP_U_Fault1_FAULT)    0.0000      

(X_U5.UTOP_U_PWM_Temp_INM)    0.0000  (X_U5.UTOP_U_PWM_Temp_INP)     .0420      

